Title: C:\Users\emred\OneDrive\Masa³st³\Yeni klas÷r\ANALOG T▄M DEVRELER\÷dev2\ltspice\unbuffered.net
Date: Sun Nov 23 21:33:41 2025
Plotname: DC transfer characteristic
Flags: real forward linear
No. Variables: 62
No. Points:          401
Offset:    0.0000000000000000e+00
Command: Linear Technology Corporation LTspice
Variables:
	0	Vcm	voltage
	1	V(vss)	voltage
	2	V(n009)	voltage
	3	V(n010)	voltage
	4	V(n004)	voltage
	5	V(n001)	voltage
	6	V(n014)	voltage
	7	V(n013)	voltage
	8	V(n005)	voltage
	9	V(n012)	voltage
	10	V(vin-)	voltage
	11	V(vdd)	voltage
	12	V(n003)	voltage
	13	V(n006)	voltage
	14	V(n008)	voltage
	15	V(n007)	voltage
	16	V(n002)	voltage
	17	V(vout)	voltage
	18	V(n015)	voltage
	19	V(n011)	voltage
	20	V(vin+)	voltage
	21	I(VDD)	device_current
	22	Id(M1)	device_current
	23	Ig(M1)	device_current
	24	Is(M1)	device_current
	25	Ib(M1)	device_current
	26	Id(M4)	device_current
	27	Ig(M4)	device_current
	28	Is(M4)	device_current
	29	Ib(M4)	device_current
	30	Id(M6)	device_current
	31	Ig(M6)	device_current
	32	Is(M6)	device_current
	33	Ib(M6)	device_current
	34	I(IBIAS)	device_current
	35	Id(M3)	device_current
	36	Ig(M3)	device_current
	37	Is(M3)	device_current
	38	Ib(M3)	device_current
	39	Id(M8)	device_current
	40	Ig(M8)	device_current
	41	Is(M8)	device_current
	42	Ib(M8)	device_current
	43	I(VIN-)	device_current
	44	I(Vcm)	device_current
	45	Id(M5)	device_current
	46	Ig(M5)	device_current
	47	Is(M5)	device_current
	48	Ib(M5)	device_current
	49	I(CC)	device_current
	50	Id(M7)	device_current
	51	Ig(M7)	device_current
	52	Is(M7)	device_current
	53	Ib(M7)	device_current
	54	I(CL)	device_current
	55	I(VSS)	device_current
	56	Id(M2)	device_current
	57	Ig(M2)	device_current
	58	Is(M2)	device_current
	59	Ib(M2)	device_current
	60	I(VIN+)	device_current
	61	I(Vin_minus)	device_current
Values:
0		-2.000000000000000e+00
	-2.000000000000000e+00
	0.000000000000000e+00
	-1.732050802894741e+00
	4.031280649325873e-01
	1.851046190975834e+00
	0.000000000000000e+00
	-1.864538957836895e+00
	1.864167440913006e+00
	-1.871263970224711e+00
	5.000000000000000e-01
	2.000000000000000e+00
	4.031280586776829e-01
	-1.581026845629860e+00
	0.000000000000000e+00
	-1.581026845583791e+00
	1.851046191025650e+00
	1.703755163357211e+00
	-1.838057050257483e+00
	-1.952434377247450e+00
	-2.000000000000000e+00
	-7.288000183279082e-04
	2.550000027530408e-04
	0.000000000000000e+00
	-2.550000043340676e-04
	1.581026845629867e-12
	2.550000046040869e-04
	-0.000000000000000e+00
	-2.550000027530407e-04
	-1.851046191025649e-12
	2.000000091197351e-04
	-0.000000000000000e+00
	-2.000000072555677e-04
	-1.864167440912989e-12
	1.880000000000000e-05
	2.550000046040869e-04
	-0.000000000000000e+00
	-2.550000027530407e-04
	-1.851046190975822e-12
	1.879999999999925e-05
	0.000000000000000e+00
	-1.880000187126942e-05
	1.871270171526985e-12
	0.000000000000000e+00
	0.000000000000000e+00
	5.100000086681358e-04
	0.000000000000000e+00
	-5.100000105326747e-04
	1.864538957836888e-12
	3.901881452042900e-24
	2.000000072555674e-04
	0.000000000000000e+00
	-2.000000090936244e-04
	1.838057050257428e-12
	1.703755173051584e-23
	7.288000214975628e-04
	2.550000027530408e-04
	0.000000000000000e+00
	-2.550000043340676e-04
	1.581026845583795e-12
	0.000000000000000e+00
	0.000000000000000e+00
1		-1.990000000000000e+00
	-2.000000000000000e+00
	0.000000000000000e+00
	-1.732050802894741e+00
	4.031280223706171e-01
	1.851046190975835e+00
	0.000000000000000e+00
	-1.864538957836895e+00
	1.864167441039339e+00
	-1.871264061412981e+00
	5.000000000000000e-01
	2.000000000000000e+00
	4.031280586776833e-01
	-1.581026845629860e+00
	0.000000000000000e+00
	-1.581026845897271e+00
	1.851046190686674e+00
	1.703755173051584e+00
	-1.838057050210311e+00
	-1.952434377247450e+00
	-1.990000000000000e+00
	-7.288000183279092e-04
	2.550000027530407e-04
	0.000000000000000e+00
	-2.550000043340676e-04
	1.581026845629867e-12
	2.550000046040868e-04
	-0.000000000000000e+00
	-2.550000027530406e-04
	-1.851046190686661e-12
	2.000000091197346e-04
	-0.000000000000000e+00
	-2.000000072555671e-04
	-1.864167441039338e-12
	1.880000000000000e-05
	2.550000046040867e-04
	-0.000000000000000e+00
	-2.550000027530405e-04
	-1.851046190975794e-12
	1.880000000000007e-05
	0.000000000000000e+00
	-1.880000187126413e-05
	1.871264061423437e-12
	0.000000000000000e+00
	0.000000000000000e+00
	5.100000086681362e-04
	0.000000000000000e+00
	-5.100000105326751e-04
	1.864538957836888e-12
	3.901881387837163e-24
	2.000000072555674e-04
	0.000000000000000e+00
	-2.000000090936245e-04
	1.838057050210330e-12
	1.703755169081193e-23
	7.288000214975641e-04
	2.550000027530406e-04
	0.000000000000000e+00
	-2.550000043340675e-04
	1.581026845897255e-12
	0.000000000000000e+00
	0.000000000000000e+00
2		-1.980000000000000e+00
	-2.000000000000000e+00
	0.000000000000000e+00
	-1.732050802894741e+00
	4.031280633646342e-01
	1.851046190975834e+00
	0.000000000000000e+00
	-1.864538957836895e+00
	1.864167440917660e+00
	-1.871264061412981e+00
	5.000000000000000e-01
	2.000000000000000e+00
	4.031280586776831e-01
	-1.581026845629860e+00
	0.000000000000000e+00
	-1.581026845595340e+00
	1.851046191013163e+00
	1.703755163714346e+00
	-1.838057050255745e+00
	-1.952434377247451e+00
	-1.980000000000000e+00
	-7.288000183279085e-04
	2.550000027530407e-04
	0.000000000000000e+00
	-2.550000043340676e-04
	1.581026845629867e-12
	2.550000046040869e-04
	-0.000000000000000e+00
	-2.550000027530407e-04
	-1.851046191013205e-12
	2.000000091197341e-04
	-0.000000000000000e+00
	-2.000000072555667e-04
	-1.864167440917659e-12
	1.880000000000000e-05
	2.550000046040868e-04
	-0.000000000000000e+00
	-2.550000027530406e-04
	-1.851046190975822e-12
	1.879999999999989e-05
	0.000000000000000e+00
	-1.880000187126396e-05
	1.871264061423441e-12
	0.000000000000000e+00
	0.000000000000000e+00
	5.100000086681362e-04
	0.000000000000000e+00
	-5.100000105326751e-04
	1.864538957836888e-12
	3.901881290171090e-24
	2.000000072555674e-04
	0.000000000000000e+00
	-2.000000090936244e-04
	1.838057050255723e-12
	1.703755163041662e-23
	7.288000214975628e-04
	2.550000027530407e-04
	0.000000000000000e+00
	-2.550000043340676e-04
	1.581026845595349e-12
	0.000000000000000e+00
	0.000000000000000e+00
3		-1.970000000000000e+00
	-2.000000000000000e+00
	0.000000000000000e+00
	-1.732050802894741e+00
	4.031280714023978e-01
	1.851046190975834e+00
	0.000000000000000e+00
	-1.864538957836895e+00
	1.864167440893802e+00
	-1.871264061413135e+00
	5.000000000000000e-01
	2.000000000000000e+00
	4.031280586776833e-01
	-1.581026845629860e+00
	0.000000000000000e+00
	-1.581026845536139e+00
	1.851046191077178e+00
	1.703755161883577e+00
	-1.838057050264654e+00
	-1.952434377247450e+00
	-1.970000000000000e+00
	-7.288000183279093e-04
	2.550000027530407e-04
	0.000000000000000e+00
	-2.550000043340675e-04
	1.581026845629867e-12
	2.550000046040867e-04
	-0.000000000000000e+00
	-2.550000027530405e-04
	-1.851046191077171e-12
	2.000000091197348e-04
	-0.000000000000000e+00
	-2.000000072555674e-04
	-1.864167440893799e-12
	1.880000000000000e-05
	2.550000046040867e-04
	-0.000000000000000e+00
	-2.550000027530405e-04
	-1.851046190975822e-12
	1.879999999999998e-05
	0.000000000000000e+00
	-1.880000187126404e-05
	1.871264061413127e-12
	0.000000000000000e+00
	0.000000000000000e+00
	5.100000086681366e-04
	0.000000000000000e+00
	-5.100000105326755e-04
	1.864538957836888e-12
	3.901881332521619e-24
	2.000000072555674e-04
	0.000000000000000e+00
	-2.000000090936244e-04
	1.838057050264621e-12
	1.703755165660558e-23
	7.288000214975628e-04
	2.550000027530407e-04
	0.000000000000000e+00
	-2.550000043340675e-04
	1.581026845536124e-12
	0.000000000000000e+00
	0.000000000000000e+00
4		-1.960000000000000e+00
	-2.000000000000000e+00
	0.000000000000000e+00
	-1.732050802894741e+00
	4.031280629742319e-01
	1.851046190975835e+00
	0.000000000000000e+00
	-1.864538957836895e+00
	1.864167440918818e+00
	-1.871264061413135e+00
	5.000000000000000e-01
	2.000000000000000e+00
	4.031280586776831e-01
	-1.581026845629860e+00
	0.000000000000000e+00
	-1.581026845598215e+00
	1.851046191010053e+00
	1.703755163803267e+00
	-1.838057050255312e+00
	-1.952434377247451e+00
	-1.960000000000000e+00
	-7.288000183279085e-04
	2.550000027530407e-04
	0.000000000000000e+00
	-2.550000043340676e-04
	1.581026845629867e-12
	2.550000046040868e-04
	-0.000000000000000e+00
	-2.550000027530406e-04
	-1.851046191010067e-12
	2.000000091197350e-04
	-0.000000000000000e+00
	-2.000000072555676e-04
	-1.864167440918829e-12
	1.880000000000000e-05
	2.550000046040868e-04
	-0.000000000000000e+00
	-2.550000027530406e-04
	-1.851046190975794e-12
	1.879999999999989e-05
	0.000000000000000e+00
	-1.880000187126396e-05
	1.871264061413160e-12
	0.000000000000000e+00
	0.000000000000000e+00
	5.100000086681362e-04
	0.000000000000000e+00
	-5.100000105326751e-04
	1.864538957836888e-12
	3.901881173166677e-24
	2.000000072555674e-04
	0.000000000000000e+00
	-2.000000090936244e-04
	1.838057050255353e-12
	1.703755155806277e-23
	7.288000214975628e-04
	2.550000027530407e-04
	0.000000000000000e+00
	-2.550000043340676e-04
	1.581026845598217e-12
	0.000000000000000e+00
	0.000000000000000e+00
5		-1.950000000000000e+00
	-2.000000000000000e+00
	0.000000000000000e+00
	-1.732050802894741e+00
	4.031280670125854e-01
	1.851046190975834e+00
	0.000000000000000e+00
	-1.864538957836895e+00
	1.864167440906832e+00
	-1.871264061413135e+00
	5.000000000000000e-01
	2.000000000000000e+00
	4.031280586776833e-01
	-1.581026845629860e+00
	0.000000000000000e+00
	-1.581026845568471e+00
	1.851046191042216e+00
	1.703755162883449e+00
	-1.838057050259789e+00
	-1.952434377247450e+00
	-1.950000000000000e+00
	-7.288000183279090e-04
	2.550000027530407e-04
	0.000000000000000e+00
	-2.550000043340676e-04
	1.581026845629867e-12
	2.550000046040867e-04
	-0.000000000000000e+00
	-2.550000027530405e-04
	-1.851046191042205e-12
	2.000000091197346e-04
	-0.000000000000000e+00
	-2.000000072555672e-04
	-1.864167440906803e-12
	1.880000000000000e-05
	2.550000046040867e-04
	-0.000000000000000e+00
	-2.550000027530405e-04
	-1.851046190975822e-12
	1.880000000000007e-05
	0.000000000000000e+00
	-1.880000187126413e-05
	1.871264061413125e-12
	0.000000000000000e+00
	0.000000000000000e+00
	5.100000086681362e-04
	0.000000000000000e+00
	-5.100000105326751e-04
	1.864538957836888e-12
	3.901881303248051e-24
	2.000000072555674e-04
	0.000000000000000e+00
	-2.000000090936244e-04
	1.838057050259740e-12
	1.703755163850323e-23
	7.288000214975628e-04
	2.550000027530407e-04
	0.000000000000000e+00
	-2.550000043340676e-04
	1.581026845568508e-12
	0.000000000000000e+00
	0.000000000000000e+00
6		-1.940000000000000e+00
	-2.000000000000000e+00
	0.000000000000000e+00
	-1.732050802894741e+00
	4.031280575657505e-01
	1.851046190975834e+00
	0.000000000000000e+00
	-1.864538957836895e+00
	1.864167440934872e+00
	-1.871264061413135e+00
	5.000000000000000e-01
	2.000000000000000e+00
	4.031280586776829e-01
	-1.581026845629860e+00
	0.000000000000000e+00
	-1.581026845638050e+00
	1.851046190966979e+00
	1.703755165035161e+00
	-1.838057050249319e+00
	-1.952434377247450e+00
	-1.940000000000000e+00
	-7.288000183279085e-04
	2.550000027530408e-04
	0.000000000000000e+00
	-2.550000043340676e-04
	1.581026845629867e-12
	2.550000046040869e-04
	-0.000000000000000e+00
	-2.550000027530407e-04
	-1.851046190966941e-12
	2.000000091197349e-04
	-0.000000000000000e+00
	-2.000000072555675e-04
	-1.864167440934862e-12
	1.880000000000000e-05
	2.550000046040869e-04
	-0.000000000000000e+00
	-2.550000027530407e-04
	-1.851046190975822e-12
	1.880000000000016e-05
	0.000000000000000e+00
	-1.880000187126422e-05
	1.871264061413123e-12
	0.000000000000000e+00
	0.000000000000000e+00
	5.100000086681358e-04
	0.000000000000000e+00
	-5.100000105326747e-04
	1.864538957836888e-12
	3.901881287612202e-24
	2.000000072555674e-04
	0.000000000000000e+00
	-2.000000090936244e-04
	1.838057050249270e-12
	1.703755162883424e-23
	7.288000214975628e-04
	2.550000027530408e-04
	0.000000000000000e+00
	-2.550000043340676e-04
	1.581026845638056e-12
	0.000000000000000e+00
	0.000000000000000e+00
7		-1.930000000000000e+00
	-2.000000000000000e+00
	0.000000000000000e+00
	-1.732050802894741e+00
	4.031280398030316e-01
	1.851046190975835e+00
	0.000000000000000e+00
	-1.864538957836895e+00
	1.864167440987596e+00
	-1.871264061413135e+00
	5.000000000000000e-01
	2.000000000000000e+00
	4.031280586776831e-01
	-1.581026845629860e+00
	0.000000000000000e+00
	-1.581026845768877e+00
	1.851046190825511e+00
	1.703755169080989e+00
	-1.838057050229632e+00
	-1.952434377247450e+00
	-1.930000000000000e+00
	-7.288000183279092e-04
	2.550000027530407e-04
	0.000000000000000e+00
	-2.550000043340675e-04
	1.581026845629868e-12
	2.550000046040868e-04
	-0.000000000000000e+00
	-2.550000027530406e-04
	-1.851046190825507e-12
	2.000000091197347e-04
	-0.000000000000000e+00
	-2.000000072555673e-04
	-1.864167440987584e-12
	1.880000000000000e-05
	2.550000046040868e-04
	-0.000000000000000e+00
	-2.550000027530406e-04
	-1.851046190975794e-12
	1.880000000000016e-05
	0.000000000000000e+00
	-1.880000187126422e-05
	1.871264061413123e-12
	0.000000000000000e+00
	0.000000000000000e+00
	5.100000086681366e-04
	0.000000000000000e+00
	-5.100000105326755e-04
	1.864538957836888e-12
	3.901881274187475e-24
	2.000000072555674e-04
	0.000000000000000e+00
	-2.000000090936245e-04
	1.838057050229623e-12
	1.703755162053259e-23
	7.288000214975628e-04
	2.550000027530406e-04
	0.000000000000000e+00
	-2.550000043340675e-04
	1.581026845768892e-12
	0.000000000000000e+00
	0.000000000000000e+00
8		-1.920000000000000e+00
	-2.000000000000000e+00
	0.000000000000000e+00
	-1.732050802894741e+00
	4.031280706568173e-01
	1.851046190975834e+00
	0.000000000000000e+00
	-1.864538957836895e+00
	1.864167440896015e+00
	-1.871264061413135e+00
	5.000000000000000e-01
	2.000000000000000e+00
	4.031280586776829e-01
	-1.581026845629860e+00
	0.000000000000000e+00
	-1.581026845541631e+00
	1.851046191071240e+00
	1.703755162053399e+00
	-1.838057050263827e+00
	-1.952434377247450e+00
	-1.920000000000000e+00
	-7.288000183279090e-04
	2.550000027530407e-04
	0.000000000000000e+00
	-2.550000043340676e-04
	1.581026845629868e-12
	2.550000046040868e-04
	-0.000000000000000e+00
	-2.550000027530407e-04
	-1.851046191071217e-12
	2.000000091197347e-04
	-0.000000000000000e+00
	-2.000000072555673e-04
	-1.864167440896024e-12
	1.880000000000000e-05
	2.550000046040869e-04
	-0.000000000000000e+00
	-2.550000027530407e-04
	-1.851046190975822e-12
	1.879999999999998e-05
	0.000000000000000e+00
	-1.880000187126404e-05
	1.871264061413127e-12
	0.000000000000000e+00
	0.000000000000000e+00
	5.100000086681362e-04
	0.000000000000000e+00
	-5.100000105326751e-04
	1.864538957836888e-12
	3.901881381626102e-24
	2.000000072555674e-04
	0.000000000000000e+00
	-2.000000090936244e-04
	1.838057050263821e-12
	1.703755168697109e-23
	7.288000214975628e-04
	2.550000027530407e-04
	0.000000000000000e+00
	-2.550000043340676e-04
	1.581026845541646e-12
	0.000000000000000e+00
	0.000000000000000e+00
9		-1.910000000000000e+00
	-2.000000000000000e+00
	0.000000000000000e+00
	-1.732050802894741e+00
	4.031280680701305e-01
	1.851046190975834e+00
	0.000000000000000e+00
	-1.864538957836895e+00
	1.864167440903693e+00
	-1.871264061413135e+00
	5.000000000000000e-01
	2.000000000000000e+00
	4.031280586776829e-01
	-1.581026845629860e+00
	0.000000000000000e+00
	-1.581026845560682e+00
	1.851046191050639e+00
	1.703755162642570e+00
	-1.838057050260961e+00
	-1.952434377247450e+00
	-1.910000000000000e+00
	-7.288000183279088e-04
	2.550000027530407e-04
	0.000000000000000e+00
	-2.550000043340676e-04
	1.581026845629868e-12
	2.550000046040868e-04
	-0.000000000000000e+00
	-2.550000027530407e-04
	-1.851046191050629e-12
	2.000000091197350e-04
	-0.000000000000000e+00
	-2.000000072555675e-04
	-1.864167440903682e-12
	1.880000000000000e-05
	2.550000046040869e-04
	-0.000000000000000e+00
	-2.550000027530407e-04
	-1.851046190975822e-12
	1.880000000000007e-05
	0.000000000000000e+00
	-1.880000187126413e-05
	1.871264061413125e-12
	0.000000000000000e+00
	0.000000000000000e+00
	5.100000086681362e-04
	0.000000000000000e+00
	-5.100000105326751e-04
	1.864538957836888e-12
	3.901881356179473e-24
	2.000000072555674e-04
	0.000000000000000e+00
	-2.000000090936244e-04
	1.838057050260943e-12
	1.703755167123526e-23
	7.288000214975628e-04
	2.550000027530407e-04
	0.000000000000000e+00
	-2.550000043340676e-04
	1.581026845560692e-12
	0.000000000000000e+00
	0.000000000000000e+00
10		-1.900000000000000e+00
	-2.000000000000000e+00
	0.000000000000000e+00
	-1.732050802894741e+00
	4.031280390786964e-01
	1.851046190975835e+00
	0.000000000000000e+00
	-1.864538957836895e+00
	1.864167440989746e+00
	-1.871264061413135e+00
	5.000000000000000e-01
	2.000000000000000e+00
	4.031280586776829e-01
	-1.581026845629860e+00
	0.000000000000000e+00
	-1.581026845774212e+00
	1.851046190819742e+00
	1.703755169245972e+00
	-1.838057050228829e+00
	-1.952434377247450e+00
	-1.900000000000000e+00
	-7.288000183279091e-04
	2.550000027530408e-04
	0.000000000000000e+00
	-2.550000043340676e-04
	1.581026845629867e-12
	2.550000046040869e-04
	-0.000000000000000e+00
	-2.550000027530408e-04
	-1.851046190819753e-12
	2.000000091197348e-04
	-0.000000000000000e+00
	-2.000000072555674e-04
	-1.864167440989746e-12
	1.880000000000000e-05
	2.550000046040869e-04
	-0.000000000000000e+00
	-2.550000027530407e-04
	-1.851046190975793e-12
	1.879999999999998e-05
	0.000000000000000e+00
	-1.880000187126404e-05
	1.871264061413127e-12
	0.000000000000000e+00
	0.000000000000000e+00
	5.100000086681358e-04
	0.000000000000000e+00
	-5.100000105326747e-04
	1.864538957836888e-12
	3.901881287614565e-24
	2.000000072555674e-04
	0.000000000000000e+00
	-2.000000090936245e-04
	1.838057050228799e-12
	1.703755162883570e-23
	7.288000214975628e-04
	2.550000027530407e-04
	0.000000000000000e+00
	-2.550000043340676e-04
	1.581026845774234e-12
	0.000000000000000e+00
	0.000000000000000e+00
11		-1.890000000000000e+00
	-2.000000000000000e+00
	0.000000000000000e+00
	-1.732050802894741e+00
	4.031280670110437e-01
	1.851046190975834e+00
	0.000000000000000e+00
	-1.864538957836895e+00
	1.864167440906836e+00
	-1.871264061413135e+00
	5.000000000000000e-01
	2.000000000000000e+00
	4.031280586776831e-01
	-1.581026845629860e+00
	0.000000000000000e+00
	-1.581026845568483e+00
	1.851046191042204e+00
	1.703755162883800e+00
	-1.838057050259787e+00
	-1.952434377247450e+00
	-1.890000000000000e+00
	-7.288000183279092e-04
	2.550000027530407e-04
	0.000000000000000e+00
	-2.550000043340675e-04
	1.581026845629868e-12
	2.550000046040868e-04
	-0.000000000000000e+00
	-2.550000027530406e-04
	-1.851046191042212e-12
	2.000000091197345e-04
	-0.000000000000000e+00
	-2.000000072555671e-04
	-1.864167440906852e-12
	1.880000000000000e-05
	2.550000046040868e-04
	-0.000000000000000e+00
	-2.550000027530406e-04
	-1.851046190975822e-12
	1.880000000000007e-05
	0.000000000000000e+00
	-1.880000187126413e-05
	1.871264061413125e-12
	0.000000000000000e+00
	0.000000000000000e+00
	5.100000086681366e-04
	0.000000000000000e+00
	-5.100000105326755e-04
	1.864538957836888e-12
	3.901881295413000e-24
	2.000000072555674e-04
	0.000000000000000e+00
	-2.000000090936244e-04
	1.838057050259751e-12
	1.703755163365814e-23
	7.288000214975623e-04
	2.550000027530407e-04
	0.000000000000000e+00
	-2.550000043340675e-04
