Title: C:\Users\emred\OneDrive\Masa³st³\Yeni klas÷r\ANALOG T▄M DEVRELER\÷dev2\ltspice\unbuffered_Vout ń²k²■ sal²n²m².net
Date: Mon Nov 24 00:12:12 2025
Plotname: Operating Point
Flags: real
No. Variables: 74
No. Points:            1
Offset:    0.0000000000000000e+00
Command: Linear Technology Corporation LTspice
Variables:
	0	V(vss)	voltage
	1	V(n009)	voltage
	2	V(n010)	voltage
	3	V(n004)	voltage
	4	V(n001)	voltage
	5	V(n014)	voltage
	6	V(n013)	voltage
	7	V(n005)	voltage
	8	V(n012)	voltage
	9	V(nc_02)	voltage
	10	V(vdd)	voltage
	11	V(n003)	voltage
	12	V(n006)	voltage
	13	V(n008)	voltage
	14	V(n007)	voltage
	15	V(n002)	voltage
	16	V(vout)	voltage
	17	V(n015)	voltage
	18	V(n011)	voltage
	19	V(nc_01)	voltage
	20	V(vcm)	voltage
	21	V(in)	voltage
	22	I(VDD)	device_current
	23	Id(M1)	device_current
	24	Ig(M1)	device_current
	25	Is(M1)	device_current
	26	Ib(M1)	device_current
	27	Id(M4)	device_current
	28	Ig(M4)	device_current
	29	Is(M4)	device_current
	30	Ib(M4)	device_current
	31	Id(M6)	device_current
	32	Ig(M6)	device_current
	33	Is(M6)	device_current
	34	Ib(M6)	device_current
	35	I(IBIAS)	device_current
	36	I(Rbleed_n005)	device_current
	37	I(Rbleed_n014)	device_current
	38	Id(M3)	device_current
	39	Ig(M3)	device_current
	40	Is(M3)	device_current
	41	Ib(M3)	device_current
	42	Id(M8)	device_current
	43	Ig(M8)	device_current
	44	Is(M8)	device_current
	45	Ib(M8)	device_current
	46	I(VIN-)	device_current
	47	I(R1)	device_current
	48	I(Rbleed_n007)	device_current
	49	I(Rbleed_n011)	device_current
	50	I(Rbleed_nc02)	device_current
	51	Id(M5)	device_current
	52	Ig(M5)	device_current
	53	Is(M5)	device_current
	54	Ib(M5)	device_current
	55	I(CC)	device_current
	56	Id(M7)	device_current
	57	Ig(M7)	device_current
	58	Is(M7)	device_current
	59	Ib(M7)	device_current
	60	I(CL)	device_current
	61	I(Rbleed_n001)	device_current
	62	I(Rbleed_n006)	device_current
	63	I(Vin)	device_current
	64	I(VSS)	device_current
	65	Id(M2)	device_current
	66	Ig(M2)	device_current
	67	Is(M2)	device_current
	68	Ib(M2)	device_current
	69	I(VIN+)	device_current
	70	I(Rbleed_n002)	device_current
	71	I(Rbleed_n012)	device_current
	72	I(Rbleed_n013)	device_current
	73	I(Rbleed_n015)	device_current
Values:
0		-2.000000000000000e+00
	0.000000000000000e+00
	-1.725647319600863e+00
	4.090317725163231e-01
	1.687853261549705e+00
	-5.380258012642179e-02
	-1.668602418014017e+00
	1.688672425632203e+00
	-1.690044806555081e+00
	0.000000000000000e+00
	2.000000000000000e+00
	4.090317766809330e-01
	-1.997302011793924e+00
	0.000000000000000e+00
	-1.997302011798080e+00
	1.687853261549644e+00
	1.719898684392490e+00
	-1.688620072364831e+00
	-1.900872037049955e+00
	0.000000000000000e+00
	-5.380258012642179e-02
	0.000000000000000e+00
	-7.332290508628582e-04
	2.531179916408926e-04
	0.000000000000000e+00
	-2.531179889429044e-04
	-2.697988206076176e-12
	2.531197332967343e-04
	-0.000000000000000e+00
	-2.531179916408926e-04
	-1.741655841676080e-09
	1.893859156669718e-04
	-0.000000000000000e+00
	-1.893842269945462e-04
	-1.688672425632207e-09
	3.760000000000000e-05
	1.688672425632203e-09
	0.000000000000000e+00
	2.531197332967343e-04
	-0.000000000000000e+00
	-2.531179916408926e-04
	-1.741655841676115e-09
	3.760184706945690e-05
	0.000000000000000e+00
	-3.760348331168333e-05
	1.636242226428652e-09
	0.000000000000000e+00
	0.000000000000000e+00
	2.697988201919577e-12
	-1.847069456923533e-09
	0.000000000000000e+00
	5.062359778858081e-04
	0.000000000000000e+00
	-5.062396464882261e-04
	3.668602418013993e-09
	3.932600735628502e-24
	1.893842269945461e-04
	0.000000000000000e+00
	-1.893859156146184e-04
	1.688620072364825e-09
	1.719898684392490e-23
	1.741655841676127e-09
	2.697988206075808e-12
	0.000000000000000e+00
	7.332290508105033e-04
	2.531179916408925e-04
	0.000000000000000e+00
	-2.531179889429043e-04
	-2.697988201919880e-12
	0.000000000000000e+00
	1.741655841676065e-09
	-1.636242226428659e-09
	-3.668602418014017e-09
	-1.688620072364831e-09
